
T0E54 000:751 SEGGER J-Link V4.15n (beta) Log File (0004ms, 0734ms total)
T0E54 000:751 DLL Compiled: Jun 18 2010 19:55:09 (0005ms, 0734ms total)
T0E54 000:751 Logging started @ 2014-08-14 10:23 (0006ms, 0734ms total)
T0E54 000:757 JLINK_SetWarnOutHandler(...) (0001ms, 0740ms total)
T0E54 000:758 JLINK_OpenEx(...)
Firmware: J-Link ARM V8 compiled Jul 17 2013 11:24:15
Hardware: V8.00
S/N: 12345678
Feature(s): RDI,FlashDL,FlashBP,JFlash,GDBFull  returns O.K. (0126ms, 0741ms total)
T0E54 000:891 JLINK_SetErrorOutHandler(...) (0013ms, 0870ms total)
T0E54 000:908 JLINK_ExecCommand("ProjectFile = "Z:\~cp产品电路+PCB\1.生产中板子\2.Eth-Board\STM32F103RCT6+ENC28J60\淘宝共享资料\实验52 ENC28J60网络模块实验\USER\JLinkSettings.ini"", ...)  returns 0x00 (0003ms, 0883ms total)
T0E54 000:918 JLINK_ExecCommand("DisableConnectionTimeout", ...)  returns 0x00 (0001ms, 0887ms total)
T0E54 000:925 JLINK_TIF_Select(JLINKARM_TIF_SWD)  returns 0x00 (0012ms, 0888ms total)
T0E54 000:937 JLINK_SetSpeed(5000) (0007ms, 0900ms total)
T0E54 000:944 JLINK_GetHardwareVersion()  returns 0x13880 (0001ms, 0907ms total)
T0E54 000:945 JLINK_GetDLLVersion()  returns 41514 (0009ms, 0908ms total)
T0E54 000:954 JLINK_GetFirmwareString(...) (0001ms, 0917ms total)
T0E54 000:963 JLINK_GetDLLVersion()  returns 41514 (0001ms, 0918ms total)
T0E54 000:964 JLINK_GetCompileDateTime() (0001ms, 0919ms total)
T0E54 000:975 JLINK_GetFirmwareString(...) (0002ms, 0920ms total)
T0E54 000:981 JLINK_GetHardwareVersion()  returns 0x13880 (0002ms, 0922ms total)
T0E54 001:008 JLINK_Reset() >0x108 TIF>Found SWD-DP with ID 0x1BA01477 >0x33 TIF> >0x33 TIF> >0x35 TIF> >0x33 TIF> >0x35 TIF> >0x33 TIF> >0x33 TIF> >0x9B TIF> >0x9B TIF> >0x1D7 TIF> >0x13A TIF> >0x13A TIF>TPIU fitted. >0x13A TIF>ETM fitted. >0x13A TIF>  FPUnit: 6 code (BP) slots and 2 literal slots >0x13A TIF> >0x13A TIF> >0x1D7 TIF> >0x1D7 TIF> >0x20C TIF> >0x13A TIF> >0x13A TIF> >0x1D7 TIF> >0x1D7 TIF> >0x13A TIF> >0x13A TIF> >0x11E4 TIF> >0x1D7 TIF> >0x13A TIF> >0x11E4 TIF> (0226ms, 0924ms total)
T0E54 001:235 JLINK_JTAG_StoreRaw(..., 0x108 Bits)  returns 0x00 (0001ms, 1151ms total)
T0E54 001:236 JLINK_JTAG_GetU32(BitPos = 227) >0x108 TIF>  returns 0x1BA01477 (0006ms, 1152ms total)
T0E54 001:242 JLINK_GetDebugInfo(0x100) -- Value=0xE00FF003  returns 0x00 (0005ms, 1158ms total)
T0E54 001:252 JLINK_ReadMem (0xE00FF000, 0x0018 Bytes, ...) -- CPU_ReadMem(24 bytes @ 0xE00FF000) -- Data:  03 F0 F0 FF 03 20 F0 FF 03 30 F0 FF 03 10 F0 FF ...  returns 0x00 (0012ms, 1164ms total)
T0E54 001:265 JLINK_ReadMemU32(0xE000ED00, 0x0001 Items, ...) -- CPU_ReadMem(4 bytes @ 0xE000ED00) -- Data:  31 C2 1F 41  returns 0x01 (0005ms, 1177ms total)
T0E54 001:278 JLINK_Halt()  returns 0x00 (0001ms, 1183ms total)
T0E54 001:279 JLINK_IsHalted()  returns TRUE (0000ms, 1184ms total)
T0E54 001:280 JLINK_ReadMemU32(0xE000EDF0, 0x0001 Items, ...) -- CPU_ReadMem(4 bytes @ 0xE000EDF0) -- Data:  03 00 03 00  returns 0x01 (0005ms, 1184ms total)
T0E54 001:286 JLINK_WriteU32(0xE000EDF0, 0xA05F0003) -- CPU_WriteMem(4 bytes @ 0xE000EDF0)  returns 0x00 (0004ms, 1190ms total)
T0E54 001:291 JLINK_WriteU32(0xE000EDFC, 0x01000000) -- CPU_WriteMem(4 bytes @ 0xE000EDFC)  returns 0x00 (0004ms, 1195ms total)
T0E54 001:296 JLINK_ReadMemU32(0xE0002000, 0x0001 Items, ...) -- CPU_ReadMem(4 bytes @ 0xE0002000) -- Data:  60 02 00 00  returns 0x01 (0005ms, 1200ms total)
T0E54 001:301 JLINK_ReadMemU32(0xE0001000, 0x0001 Items, ...) -- CPU_ReadMem(4 bytes @ 0xE0001000) -- Data:  01 00 00 40  returns 0x01 (0005ms, 1205ms total)
T0E54 001:323 JLINK_ExecCommand("Device = STM32F103RC", ...)
                JLINK_ExecCommand("map ram 0x20000000 - 0x2000BFFF", ...)  returns 0x00 (0000ms, 0001ms total)
                JLINK_AddMirrorAreaEx(Addr = 0x00000000, Size = 0x00000000) (0001ms, 0001ms total)
                returns 0x00 (0004ms, 1212ms total)
T0E54 001:329 JLINK_GetHWStatus(...)  returns 0x00 (0004ms, 1216ms total)
T0E54 001:345 JLINK_GetNumBPUnits(Type = 0xFFFFFF00) >0x108 TIF>Found SWD-DP with ID 0x1BA01477 >0x33 TIF> >0x33 TIF> >0x35 TIF> >0x33 TIF> >0x35 TIF> >0x33 TIF> >0x33 TIF> >0x9B TIF> >0x9B TIF> >0x1D7 TIF> >0x13A TIF> >0x13A TIF>TPIU fitted. >0x13A TIF>ETM fitted. >0x13A TIF>  FPUnit: 6 code (BP) slots and 2 literal slots >0x13A TIF> >0x13A TIF>  returns 0x06 (0144ms, 1221ms total)
T0E54 001:489 JLINK_GetNumBPUnits(Type = 0xF0)  returns 0x800 (0002ms, 1365ms total)
T0E54 001:491 JLINK_GetNumWPUnits()  returns 0x04 (0001ms, 1367ms total)
T0E54 001:509 JLINK_GetSpeed()  returns 0xFA0 (0004ms, 1368ms total)
T0E54 001:521 JLINK_ReadMemU32(0xE000E004, 0x0001 Items, ...) -- CPU_ReadMem(4 bytes @ 0xE000E004) -- Data:  01 00 00 00  returns 0x01 (0006ms, 1372ms total)
T0E54 001:527 JLINK_WriteMem(0xE0001000, 0x001C Bytes, ...) -- Data:  01 00 00 00 00 00 00 00 00 00 00 00 00 00 00 00 ... -- CPU_WriteMem(28 bytes @ 0xE0001000)  returns 0x1C (0004ms, 1378ms total)
T0E54 001:531 JLINK_ReadMem (0xE0001000, 0x001C Bytes, ...) -- CPU_ReadMem(28 bytes @ 0xE0001000) -- Data:  01 00 00 40 00 00 00 00 00 00 00 00 00 00 00 00 ...  returns 0x00 (0006ms, 1382ms total)
T0E54 001:537 JLINK_Halt()  returns 0x00 (0001ms, 1388ms total)
T0E54 001:538 JLINK_IsHalted()  returns TRUE (0002ms, 1389ms total)
T0E54 001:545 JLINK_WriteMem(0x20000000, 0x0164 Bytes, ...) -- Data:  00 BE 0A E0 0D 78 2D 06 68 40 08 24 40 00 00 D3 ... -- CPU_WriteMem(356 bytes @ 0x20000000)  returns 0x164 (0007ms, 1389ms total)
T0E54 001:553 JLINK_WriteReg(R0, 0x08000000)  returns 0x00 (0000ms, 1397ms total)
T0E54 001:554 JLINK_WriteReg(R1, 0x007A1200)  returns 0x00 (0000ms, 1398ms total)
T0E54 001:555 JLINK_WriteReg(R2, 0x00000001)  returns 0x00 (0001ms, 1399ms total)
T0E54 001:556 JLINK_WriteReg(R3, 0x00000000)  returns 0x00 (0000ms, 1400ms total)
T0E54 001:557 JLINK_WriteReg(R4, 0x00000000)  returns 0x00 (0001ms, 1401ms total)
T0E54 001:559 JLINK_WriteReg(R5, 0x00000000)  returns 0x00 (0001ms, 1403ms total)
T0E54 001:560 JLINK_WriteReg(R6, 0x00000000)  returns 0x00 (0001ms, 1404ms total)
T0E54 001:561 JLINK_WriteReg(R7, 0x00000000)  returns 0x00 (0002ms, 1405ms total)
T0E54 001:563 JLINK_WriteReg(R8, 0x00000000)  returns 0x00 (0001ms, 1407ms total)
T0E54 001:564 JLINK_WriteReg(R9, 0x20000160)  returns 0x00 (0001ms, 1408ms total)
T0E54 001:565 JLINK_WriteReg(R10, 0x00000000)  returns 0x00 (0001ms, 1409ms total)
T0E54 001:567 JLINK_WriteReg(R11, 0x00000000)  returns 0x00 (0000ms, 1411ms total)
T0E54 001:567 JLINK_WriteReg(R12, 0x00000000)  returns 0x00 (0004ms, 1411ms total)
T0E54 001:571 JLINK_WriteReg(R13, 0x20000800)  returns 0x00 (0000ms, 1415ms total)
T0E54 001:571 JLINK_WriteReg(R14, 0x20000001)  returns 0x00 (0001ms, 1415ms total)
T0E54 001:573 JLINK_WriteReg(R15, 0x20000038)  returns 0x00 (0002ms, 1417ms total)
T0E54 001:575 JLINK_WriteReg(XPSR, 0x01000000)  returns 0x00 (0001ms, 1419ms total)
T0E54 001:576 JLINK_WriteReg(MSP, 0x20000800)  returns 0x00 (0001ms, 1420ms total)
T0E54 001:577 JLINK_WriteReg(PSP, 0x20000800)  returns 0x00 (0001ms, 1421ms total)
T0E54 001:578 JLINK_WriteReg(CFBP, 0x00000000)  returns 0x00 (0001ms, 1422ms total)
T0E54 001:579 JLINK_SetBPEx(Addr = 0x20000000, Type = 0xFFFFFFF2) -- CPU_ReadMem(2 bytes @ 0x20000000)  returns 0x00000001 (0093ms, 1423ms total)
T0E54 001:672 JLINK_Go() -- CPU_WriteMem(2 bytes @ 0x20000000) -- CPU_WriteMem(4 bytes @ 0xE0002008) -- CPU_WriteMem(4 bytes @ 0xE000200C) -- CPU_WriteMem(4 bytes @ 0xE0002010) -- CPU_WriteMem(4 bytes @ 0xE0002014) -- CPU_WriteMem(4 bytes @ 0xE0002018) -- CPU_WriteMem(4 bytes @ 0xE000201C) (0041ms, 1516ms total)
T0E54 001:713 JLINK_IsHalted() -- CPU_ReadMem(2 bytes @ 0x20000000)  returns TRUE (0015ms, 1557ms total)
T0E54 001:728 JLINK_ReadReg(R15)  returns 0x20000000 (0001ms, 1557ms total)
T0E54 001:729 JLINK_ClrBPEx(BPHandle = 0x00000001)  returns 0x00 (0001ms, 1558ms total)
T0E54 001:730 JLINK_ReadReg(R0)  returns 0x00000000 (0000ms, 1559ms total)
T0E54 001:732 JLINK_WriteReg(R0, 0x08000000)  returns 0x00 (0001ms, 1560ms total)
T0E54 001:733 JLINK_WriteReg(R1, 0x007A1200)  returns 0x00 (0001ms, 1561ms total)
T0E54 001:734 JLINK_WriteReg(R2, 0x00000001)  returns 0x00 (0001ms, 1562ms total)
T0E54 001:757 JLINK_WriteReg(R3, 0x00000000)  returns 0x00 (0001ms, 1585ms total)
T0E54 001:759 JLINK_WriteReg(R4, 0x00000000)  returns 0x00 (0000ms, 1587ms total)
T0E54 001:760 JLINK_WriteReg(R5, 0x00000000)  returns 0x00 (0000ms, 1588ms total)
T0E54 001:761 JLINK_WriteReg(R6, 0x00000000)  returns 0x00 (0000ms, 1589ms total)
T0E54 001:762 JLINK_WriteReg(R7, 0x00000000)  returns 0x00 (0000ms, 1590ms total)
T0E54 001:763 JLINK_WriteReg(R8, 0x00000000)  returns 0x00 (0000ms, 1591ms total)
T0E54 001:764 JLINK_WriteReg(R9, 0x20000160)  returns 0x00 (0001ms, 1592ms total)
T0E54 001:765 JLINK_WriteReg(R10, 0x00000000)  returns 0x00 (0001ms, 1593ms total)
T0E54 001:766 JLINK_WriteReg(R11, 0x00000000)  returns 0x00 (0001ms, 1594ms total)
T0E54 001:767 JLINK_WriteReg(R12, 0x00000000)  returns 0x00 (0001ms, 1595ms total)
T0E54 001:768 JLINK_WriteReg(R13, 0x20000800)  returns 0x00 (0001ms, 1596ms total)
T0E54 001:769 JLINK_WriteReg(R14, 0x20000001)  returns 0x00 (0002ms, 1597ms total)
T0E54 001:771 JLINK_WriteReg(R15, 0x2000007C)  returns 0x00 (0002ms, 1599ms total)
T0E54 001:773 JLINK_WriteReg(XPSR, 0x01000000)  returns 0x00 (0001ms, 1601ms total)
T0E54 001:774 JLINK_WriteReg(MSP, 0x20000800)  returns 0x00 (0001ms, 1602ms total)
T0E54 001:775 JLINK_WriteReg(PSP, 0x20000800)  returns 0x00 (0001ms, 1603ms total)
T0E54 001:776 JLINK_WriteReg(CFBP, 0x00000000)  returns 0x00 (0001ms, 1604ms total)
T0E54 001:777 JLINK_SetBPEx(Addr = 0x20000000, Type = 0xFFFFFFF2)  returns 0x00000002 (0001ms, 1605ms total)
T0E54 001:778 JLINK_Go() -- CPU_WriteMem(4 bytes @ 0xE0002008) -- CPU_WriteMem(4 bytes @ 0xE000200C) -- CPU_WriteMem(4 bytes @ 0xE0002010) -- CPU_WriteMem(4 bytes @ 0xE0002014) -- CPU_WriteMem(4 bytes @ 0xE0002018) -- CPU_WriteMem(4 bytes @ 0xE000201C) (0033ms, 1606ms total)
T0E54 001:812 JLINK_IsHalted()  returns FALSE (0004ms, 1640ms total)
T0E54 001:867 JLINK_IsHalted() -- CPU_ReadMem(2 bytes @ 0x20000000)  returns TRUE (0025ms, 1640ms total)
T0E54 001:894 JLINK_ReadReg(R15)  returns 0x20000000 (0003ms, 1640ms total)
T0E54 001:898 JLINK_ClrBPEx(BPHandle = 0x00000002)  returns 0x00 (0001ms, 1644ms total)
T0E54 001:902 JLINK_ReadReg(R0)  returns 0x00000000 (0001ms, 1648ms total)
T0E54 001:957 JLINK_WriteReg(R0, 0x00000001)  returns 0x00 (0003ms, 1650ms total)
T0E54 001:960 JLINK_WriteReg(R1, 0x007A1200)  returns 0x00 (0001ms, 1653ms total)
T0E54 001:962 JLINK_WriteReg(R2, 0x00000001)  returns 0x00 (0008ms, 1655ms total)
T0E54 001:970 JLINK_WriteReg(R3, 0x00000000)  returns 0x00 (0002ms, 1663ms total)
T0E54 001:972 JLINK_WriteReg(R4, 0x00000000)  returns 0x00 (0001ms, 1665ms total)
T0E54 001:973 JLINK_WriteReg(R5, 0x00000000)  returns 0x00 (0002ms, 1666ms total)
T0E54 001:975 JLINK_WriteReg(R6, 0x00000000)  returns 0x00 (0002ms, 1668ms total)
T0E54 001:977 JLINK_WriteReg(R7, 0x00000000)  returns 0x00 (0001ms, 1670ms total)
T0E54 001:978 JLINK_WriteReg(R8, 0x00000000)  returns 0x00 (0001ms, 1671ms total)
T0E54 001:979 JLINK_WriteReg(R9, 0x20000160)  returns 0x00 (0002ms, 1672ms total)
T0E54 001:982 JLINK_WriteReg(R10, 0x00000000)  returns 0x00 (0001ms, 1675ms total)
T0E54 001:983 JLINK_WriteReg(R11, 0x00000000)  returns 0x00 (0001ms, 1676ms total)
T0E54 001:985 JLINK_WriteReg(R12, 0x00000000)  returns 0x00 (0001ms, 1678ms total)
T0E54 001:986 JLINK_WriteReg(R13, 0x20000800)  returns 0x00 (0001ms, 1679ms total)
T0E54 001:988 JLINK_WriteReg(R14, 0x20000001)  returns 0x00 (0001ms, 1681ms total)
T0E54 001:990 JLINK_WriteReg(R15, 0x2000006A)  returns 0x00 (0001ms, 1683ms total)
T0E54 001:991 JLINK_WriteReg(XPSR, 0x01000000)  returns 0x00 (0001ms, 1684ms total)
T0E54 001:992 JLINK_WriteReg(MSP, 0x20000800)  returns 0x00 (0001ms, 1685ms total)
T0E54 001:993 JLINK_WriteReg(PSP, 0x20000800)  returns 0x00 (0001ms, 1686ms total)
T0E54 001:994 JLINK_WriteReg(CFBP, 0x00000000)  returns 0x00 (0000ms, 1687ms total)
T0E54 001:995 JLINK_SetBPEx(Addr = 0x20000000, Type = 0xFFFFFFF2)  returns 0x00000003 (0001ms, 1688ms total)
T0E54 001:996 JLINK_Go() -- CPU_WriteMem(4 bytes @ 0xE0002008) -- CPU_WriteMem(4 bytes @ 0xE000200C) -- CPU_WriteMem(4 bytes @ 0xE0002010) -- CPU_WriteMem(4 bytes @ 0xE0002014) -- CPU_WriteMem(4 bytes @ 0xE0002018) -- CPU_WriteMem(4 bytes @ 0xE000201C) (0033ms, 1689ms total)
T0E54 002:033 JLINK_IsHalted() -- CPU_ReadMem(2 bytes @ 0x20000000)  returns TRUE (0015ms, 1722ms total)
T0E54 002:049 JLINK_ReadReg(R15)  returns 0x20000000 (0000ms, 1722ms total)
T0E54 002:049 JLINK_ClrBPEx(BPHandle = 0x00000003)  returns 0x00 (0001ms, 1722ms total)
T0E54 002:050 JLINK_ReadReg(R0)  returns 0x00000000 (0001ms, 1723ms total)
T0E54 002:058 JLINK_WriteMem(0x20000000, 0x0164 Bytes, ...) -- Data:  00 BE 0A E0 0D 78 2D 06 68 40 08 24 40 00 00 D3 ... -- CPU_WriteMem(356 bytes @ 0x20000000)  returns 0x164 (0010ms, 1724ms total)
T0E54 002:068 JLINK_WriteReg(R0, 0x08000000)  returns 0x00 (0003ms, 1734ms total)
T0E54 002:071 JLINK_WriteReg(R1, 0x007A1200)  returns 0x00 (0001ms, 1737ms total)
T0E54 002:072 JLINK_WriteReg(R2, 0x00000002)  returns 0x00 (0001ms, 1738ms total)
T0E54 002:073 JLINK_WriteReg(R3, 0x00000000)  returns 0x00 (0001ms, 1739ms total)
T0E54 002:074 JLINK_WriteReg(R4, 0x00000000)  returns 0x00 (0001ms, 1740ms total)
T0E54 002:075 JLINK_WriteReg(R5, 0x00000000)  returns 0x00 (0001ms, 1741ms total)
T0E54 002:076 JLINK_WriteReg(R6, 0x00000000)  returns 0x00 (0002ms, 1742ms total)
T0E54 002:078 JLINK_WriteReg(R7, 0x00000000)  returns 0x00 (0002ms, 1744ms total)
T0E54 002:080 JLINK_WriteReg(R8, 0x00000000)  returns 0x00 (0001ms, 1746ms total)
T0E54 002:081 JLINK_WriteReg(R9, 0x20000160)  returns 0x00 (0001ms, 1747ms total)
T0E54 002:082 JLINK_WriteReg(R10, 0x00000000)  returns 0x00 (0001ms, 1748ms total)
T0E54 002:084 JLINK_WriteReg(R11, 0x00000000)  returns 0x00 (0001ms, 1750ms total)
T0E54 002:085 JLINK_WriteReg(R12, 0x00000000)  returns 0x00 (0001ms, 1751ms total)
T0E54 002:086 JLINK_WriteReg(R13, 0x20000800)  returns 0x00 (0001ms, 1752ms total)
T0E54 002:087 JLINK_WriteReg(R14, 0x20000001)  returns 0x00 (0001ms, 1753ms total)
T0E54 002:088 JLINK_WriteReg(R15, 0x20000038)  returns 0x00 (0001ms, 1754ms total)
T0E54 002:089 JLINK_WriteReg(XPSR, 0x01000000)  returns 0x00 (0001ms, 1755ms total)
T0E54 002:090 JLINK_WriteReg(MSP, 0x20000800)  returns 0x00 (0003ms, 1756ms total)
T0E54 002:093 JLINK_WriteReg(PSP, 0x20000800)  returns 0x00 (0001ms, 1759ms total)
T0E54 002:094 JLINK_WriteReg(CFBP, 0x00000000)  returns 0x00 (0001ms, 1760ms total)
T0E54 002:095 JLINK_SetBPEx(Addr = 0x20000000, Type = 0xFFFFFFF2) -- CPU_ReadMem(2 bytes @ 0x20000000)  returns 0x00000004 (0005ms, 1761ms total)
T0E54 002:100 JLINK_Go() -- CPU_WriteMem(2 bytes @ 0x20000000) -- CPU_WriteMem(4 bytes @ 0xE0002008) -- CPU_WriteMem(4 bytes @ 0xE000200C) -- CPU_WriteMem(4 bytes @ 0xE0002010) -- CPU_WriteMem(4 bytes @ 0xE0002014) -- CPU_WriteMem(4 bytes @ 0xE0002018) -- CPU_WriteMem(4 bytes @ 0xE000201C) (0036ms, 1766ms total)
T0E54 002:137 JLINK_IsHalted() -- CPU_ReadMem(2 bytes @ 0x20000000)  returns TRUE (0017ms, 1803ms total)
T0E54 002:154 JLINK_ReadReg(R15)  returns 0x20000000 (0000ms, 1803ms total)
T0E54 002:154 JLINK_ClrBPEx(BPHandle = 0x00000004)  returns 0x00 (0001ms, 1803ms total)
T0E54 002:155 JLINK_ReadReg(R0)  returns 0x00000000 (0001ms, 1804ms total)
T0E54 002:158 JLINK_WriteMem(0x20000164, 0x0400 Bytes, ...) -- Data:  48 27 00 20 15 3F 00 08 D1 09 00 08 D3 09 00 08 ... -- CPU_WriteMem(1024 bytes @ 0x20000164)  returns 0x400 (0012ms, 1806ms total)
T0E54 002:170 JLINK_WriteReg(R0, 0x08000000)  returns 0x00 (0002ms, 1818ms total)
T0E54 002:172 JLINK_WriteReg(R1, 0x00000400)  returns 0x00 (0001ms, 1820ms total)
T0E54 002:173 JLINK_WriteReg(R2, 0x20000164)  returns 0x00 (0002ms, 1821ms total)
T0E54 002:176 JLINK_WriteReg(R3, 0x00000000)  returns 0x00 (0001ms, 1824ms total)
T0E54 002:177 JLINK_WriteReg(R4, 0x00000000)  returns 0x00 (0001ms, 1825ms total)
T0E54 002:178 JLINK_WriteReg(R5, 0x00000000)  returns 0x00 (0001ms, 1826ms total)
T0E54 002:180 JLINK_WriteReg(R6, 0x00000000)  returns 0x00 (0000ms, 1828ms total)
T0E54 002:180 JLINK_WriteReg(R7, 0x00000000)  returns 0x00 (0001ms, 1828ms total)
T0E54 002:192 JLINK_WriteReg(R8, 0x00000000)  returns 0x00 (0001ms, 1840ms total)
T0E54 002:193 JLINK_WriteReg(R9, 0x20000160)  returns 0x00 (0000ms, 1841ms total)
T0E54 002:196 JLINK_WriteReg(R10, 0x00000000)  returns 0x00 (0001ms, 1844ms total)
T0E54 002:197 JLINK_WriteReg(R11, 0x00000000)  returns 0x00 (0001ms, 1845ms total)
T0E54 002:199 JLINK_WriteReg(R12, 0x00000000)  returns 0x00 (0001ms, 1847ms total)
T0E54 002:200 JLINK_WriteReg(R13, 0x20000800)  returns 0x00 (0000ms, 1848ms total)
T0E54 002:201 JLINK_WriteReg(R14, 0x20000001)  returns 0x00 (0001ms, 1849ms total)
T0E54 002:202 JLINK_WriteReg(R15, 0x200000F4)  returns 0x00 (0000ms, 1850ms total)
T0E54 002:203 JLINK_WriteReg(XPSR, 0x01000000)  returns 0x00 (0001ms, 1851ms total)
T0E54 002:204 JLINK_WriteReg(MSP, 0x20000800)  returns 0x00 (0001ms, 1852ms total)
T0E54 002:205 JLINK_WriteReg(PSP, 0x20000800)  returns 0x00 (0001ms, 1853ms total)
T0E54 002:206 JLINK_WriteReg(CFBP, 0x00000000)  returns 0x00 (0001ms, 1854ms total)
T0E54 002:207 JLINK_SetBPEx(Addr = 0x20000000, Type = 0xFFFFFFF2)  returns 0x00000005 (0001ms, 1855ms total)
T0E54 002:208 JLINK_Go() -- CPU_WriteMem(4 bytes @ 0xE0002008) -- CPU_WriteMem(4 bytes @ 0xE000200C) -- CPU_WriteMem(4 bytes @ 0xE0002010) -- CPU_WriteMem(4 bytes @ 0xE0002014) -- CPU_WriteMem(4 bytes @ 0xE0002018) -- CPU_WriteMem(4 bytes @ 0xE000201C) (0030ms, 1856ms total)
T0E54 002:238 JLINK_IsHalted()  returns FALSE (0004ms, 1886ms total)
T0E54 002:293 JLINK_IsHalted() -- CPU_ReadMem(2 bytes @ 0x20000000)  returns TRUE (0017ms, 1886ms total)
T0E54 002:310 JLINK_ReadReg(R15)  returns 0x20000000 (0001ms, 1886ms total)
T0E54 002:311 JLINK_ClrBPEx(BPHandle = 0x00000005)  returns 0x00 (0001ms, 1887ms total)
T0E54 002:312 JLINK_ReadReg(R0)  returns 0x00000000 (0001ms, 1888ms total)
T0E54 002:314 JLINK_WriteMem(0x20000164, 0x0400 Bytes, ...) -- Data:  AF 49 08 60 02 20 07 F0 97 FE 00 BF A9 48 00 88 ... -- CPU_WriteMem(1024 bytes @ 0x20000164)  returns 0x400 (0011ms, 1889ms total)
T0E54 002:325 JLINK_WriteReg(R0, 0x08000400)  returns 0x00 (0001ms, 1900ms total)
T0E54 002:327 JLINK_WriteReg(R1, 0x00000400)  returns 0x00 (0001ms, 1902ms total)
T0E54 002:328 JLINK_WriteReg(R2, 0x20000164)  returns 0x00 (0001ms, 1903ms total)
T0E54 002:329 JLINK_WriteReg(R3, 0x00000000)  returns 0x00 (0002ms, 1904ms total)
T0E54 002:331 JLINK_WriteReg(R4, 0x00000000)  returns 0x00 (0001ms, 1906ms total)
T0E54 002:332 JLINK_WriteReg(R5, 0x00000000)  returns 0x00 (0002ms, 1907ms total)
T0E54 002:334 JLINK_WriteReg(R6, 0x00000000)  returns 0x00 (0001ms, 1909ms total)
T0E54 002:335 JLINK_WriteReg(R7, 0x00000000)  returns 0x00 (0002ms, 1910ms total)
T0E54 002:337 JLINK_WriteReg(R8, 0x00000000)  returns 0x00 (0002ms, 1912ms total)
T0E54 002:339 JLINK_WriteReg(R9, 0x20000160)  returns 0x00 (0001ms, 1914ms total)
T0E54 002:341 JLINK_WriteReg(R10, 0x00000000)  returns 0x00 (0001ms, 1916ms total)
T0E54 002:342 JLINK_WriteReg(R11, 0x00000000)  returns 0x00 (0001ms, 1917ms total)
T0E54 002:343 JLINK_WriteReg(R12, 0x00000000)  returns 0x00 (0002ms, 1918ms total)
T0E54 002:345 JLINK_WriteReg(R13, 0x20000800)  returns 0x00 (0001ms, 1920ms total)
T0E54 002:346 JLINK_WriteReg(R14, 0x20000001)  returns 0x00 (0001ms, 1921ms total)
T0E54 002:347 JLINK_WriteReg(R15, 0x200000F4)  returns 0x00 (0001ms, 1922ms total)
T0E54 002:348 JLINK_WriteReg(XPSR, 0x01000000)  returns 0x00 (0001ms, 1923ms total)
T0E54 002:349 JLINK_WriteReg(MSP, 0x20000800)  returns 0x00 (0001ms, 1924ms total)
T0E54 002:351 JLINK_WriteReg(PSP, 0x20000800)  returns 0x00 (0002ms, 1926ms total)
T0E54 002:353 JLINK_WriteReg(CFBP, 0x00000000)  returns 0x00 (0001ms, 1928ms total)
T0E54 002:354 JLINK_SetBPEx(Addr = 0x20000000, Type = 0xFFFFFFF2)  returns 0x00000006 (0001ms, 1929ms total)
T0E54 002:355 JLINK_Go() -- CPU_WriteMem(4 bytes @ 0xE0002008) -- CPU_WriteMem(4 bytes @ 0xE000200C) -- CPU_WriteMem(4 bytes @ 0xE0002010) -- CPU_WriteMem(4 bytes @ 0xE0002014) -- CPU_WriteMem(4 bytes @ 0xE0002018) -- CPU_WriteMem(4 bytes @ 0xE000201C) (0036ms, 1930ms total)
T0E54 002:392 JLINK_IsHalted()  returns FALSE (0005ms, 1967ms total)
T0E54 002:448 JLINK_IsHalted() -- CPU_ReadMem(2 bytes @ 0x20000000)  returns TRUE (0023ms, 1967ms total)
T0E54 002:471 JLINK_ReadReg(R15)  returns 0x20000000 (0014ms, 1967ms total)
T0E54 002:485 JLINK_ClrBPEx(BPHandle = 0x00000006)  returns 0x00 (0002ms, 1981ms total)
T0E54 002:487 JLINK_ReadReg(R0)  returns 0x00000000 (0001ms, 1983ms total)
T0E54 002:489 JLINK_WriteMem(0x20000164, 0x0400 Bytes, ...) -- Data:  20 F0 40 00 54 49 08 70 53 48 06 78 01 2C 24 D1 ... -- CPU_WriteMem(1024 bytes @ 0x20000164)  returns 0x400 (0014ms, 1984ms total)
T0E54 002:503 JLINK_WriteReg(R0, 0x08000800)  returns 0x00 (0001ms, 1998ms total)
T0E54 002:505 JLINK_WriteReg(R1, 0x00000400)  returns 0x00 (0000ms, 2000ms total)
T0E54 002:506 JLINK_WriteReg(R2, 0x20000164)  returns 0x00 (0001ms, 2001ms total)
T0E54 002:507 JLINK_WriteReg(R3, 0x00000000)  returns 0x00 (0004ms, 2002ms total)
T0E54 002:511 JLINK_WriteReg(R4, 0x00000000)  returns 0x00 (0003ms, 2006ms total)
T0E54 002:514 JLINK_WriteReg(R5, 0x00000000)  returns 0x00 (0001ms, 2009ms total)
T0E54 002:516 JLINK_WriteReg(R6, 0x00000000)  returns 0x00 (0000ms, 2011ms total)
T0E54 002:517 JLINK_WriteReg(R7, 0x00000000)  returns 0x00 (0001ms, 2012ms total)
T0E54 002:518 JLINK_WriteReg(R8, 0x00000000)  returns 0x00 (0001ms, 2013ms total)
T0E54 002:519 JLINK_WriteReg(R9, 0x20000160)  returns 0x00 (0001ms, 2014ms total)
T0E54 002:520 JLINK_WriteReg(R10, 0x00000000)  returns 0x00 (0001ms, 2015ms total)
T0E54 002:522 JLINK_WriteReg(R11, 0x00000000)  returns 0x00 (0001ms, 2017ms total)
T0E54 002:523 JLINK_WriteReg(R12, 0x00000000)  returns 0x00 (0001ms, 2018ms total)
T0E54 002:524 JLINK_WriteReg(R13, 0x20000800)  returns 0x00 (0001ms, 2019ms total)
T0E54 002:525 JLINK_WriteReg(R14, 0x20000001)  returns 0x00 (0001ms, 2020ms total)
T0E54 002:526 JLINK_WriteReg(R15, 0x200000F4)  returns 0x00 (0001ms, 2021ms total)
T0E54 002:528 JLINK_WriteReg(XPSR, 0x01000000)  returns 0x00 (0001ms, 2023ms total)
T0E54 002:529 JLINK_WriteReg(MSP, 0x20000800)  returns 0x00 (0000ms, 2024ms total)
T0E54 002:529 JLINK_WriteReg(PSP, 0x20000800)  returns 0x00 (0001ms, 2024ms total)
T0E54 002:530 JLINK_WriteReg(CFBP, 0x00000000)  returns 0x00 (0002ms, 2025ms total)
T0E54 002:532 JLINK_SetBPEx(Addr = 0x20000000, Type = 0xFFFFFFF2)  returns 0x00000007 (0001ms, 2027ms total)
T0E54 002:533 JLINK_Go() -- CPU_WriteMem(4 bytes @ 0xE0002008) -- CPU_WriteMem(4 bytes @ 0xE000200C) -- CPU_WriteMem(4 bytes @ 0xE0002010) -- CPU_WriteMem(4 bytes @ 0xE0002014) -- CPU_WriteMem(4 bytes @ 0xE0002018) -- CPU_WriteMem(4 bytes @ 0xE000201C) (0034ms, 2028ms total)
T0E54 002:568 JLINK_IsHalted()  returns FALSE (0005ms, 2063ms total)
T0E54 002:624 JLINK_IsHalted() -- CPU_ReadMem(2 bytes @ 0x20000000)  returns TRUE (0019ms, 2063ms total)
T0E54 002:643 JLINK_ReadReg(R15)  returns 0x20000000 (0001ms, 2063ms total)
T0E54 002:644 JLINK_ClrBPEx(BPHandle = 0x00000007)  returns 0x00 (0001ms, 2064ms total)
T0E54 002:645 JLINK_ReadReg(R0)  returns 0x00000000 (0001ms, 2065ms total)
T0E54 002:647 JLINK_WriteMem(0x20000164, 0x0400 Bytes, ...) -- Data:  84 FE 78 B1 08 21 27 48 03 F0 7F FE 50 B1 04 21 ... -- CPU_WriteMem(1024 bytes @ 0x20000164)  returns 0x400 (0012ms, 2067ms total)
T0E54 002:659 JLINK_WriteReg(R0, 0x08000C00)  returns 0x00 (0001ms, 2079ms total)
T0E54 002:660 JLINK_WriteReg(R1, 0x00000400)  returns 0x00 (0001ms, 2080ms total)
T0E54 002:661 JLINK_WriteReg(R2, 0x20000164)  returns 0x00 (0001ms, 2081ms total)
T0E54 002:662 JLINK_WriteReg(R3, 0x00000000)  returns 0x00 (0001ms, 2082ms total)
T0E54 002:663 JLINK_WriteReg(R4, 0x00000000)  returns 0x00 (0001ms, 2083ms total)
T0E54 002:664 JLINK_WriteReg(R5, 0x00000000)  returns 0x00 (0001ms, 2084ms total)
T0E54 002:665 JLINK_WriteReg(R6, 0x00000000)  returns 0x00 (0001ms, 2085ms total)
T0E54 002:666 JLINK_WriteReg(R7, 0x00000000)  returns 0x00 (0000ms, 2086ms total)
T0E54 002:667 JLINK_WriteReg(R8, 0x00000000)  returns 0x00 (0001ms, 2087ms total)
T0E54 002:669 JLINK_WriteReg(R9, 0x20000160)  returns 0x00 (0001ms, 2089ms total)
T0E54 002:670 JLINK_WriteReg(R10, 0x00000000)  returns 0x00 (0001ms, 2090ms total)
T0E54 002:671 JLINK_WriteReg(R11, 0x00000000)  returns 0x00 (0001ms, 2091ms total)
T0E54 002:673 JLINK_WriteReg(R12, 0x00000000)  returns 0x00 (0000ms, 2093ms total)
T0E54 002:674 JLINK_WriteReg(R13, 0x20000800)  returns 0x00 (0000ms, 2094ms total)
T0E54 002:674 JLINK_WriteReg(R14, 0x20000001)  returns 0x00 (0002ms, 2094ms total)
T0E54 002:676 JLINK_WriteReg(R15, 0x200000F4)  returns 0x00 (0001ms, 2096ms total)
T0E54 002:677 JLINK_WriteReg(XPSR, 0x01000000)  returns 0x00 (0001ms, 2097ms total)
T0E54 002:678 JLINK_WriteReg(MSP, 0x20000800)  returns 0x00 (0001ms, 2098ms total)
T0E54 002:679 JLINK_WriteReg(PSP, 0x20000800)  returns 0x00 (0001ms, 2099ms total)
T0E54 002:680 JLINK_WriteReg(CFBP, 0x00000000)  returns 0x00 (0001ms, 2100ms total)
T0E54 002:681 JLINK_SetBPEx(Addr = 0x20000000, Type = 0xFFFFFFF2)  returns 0x00000008 (0001ms, 2101ms total)
T0E54 002:682 JLINK_Go() -- CPU_WriteMem(4 bytes @ 0xE0002008) -- CPU_WriteMem(4 bytes @ 0xE000200C) -- CPU_WriteMem(4 bytes @ 0xE0002010) -- CPU_WriteMem(4 bytes @ 0xE0002014) -- CPU_WriteMem(4 bytes @ 0xE0002018) -- CPU_WriteMem(4 bytes @ 0xE000201C) (0038ms, 2102ms total)
T0E54 002:720 JLINK_IsHalted()  returns FALSE (0006ms, 2140ms total)
T0E54 002:777 JLINK_IsHalted() -- CPU_ReadMem(2 bytes @ 0x20000000)  returns TRUE (0012ms, 2140ms total)
T0E54 002:789 JLINK_ReadReg(R15)  returns 0x20000000 (0001ms, 2140ms total)
T0E54 002:790 JLINK_ClrBPEx(BPHandle = 0x00000008)  returns 0x00 (0001ms, 2141ms total)
T0E54 002:791 JLINK_ReadReg(R0)  returns 0x00000000 (0002ms, 2142ms total)
T0E54 002:794 JLINK_WriteMem(0x20000164, 0x0400 Bytes, ...) -- Data:  00 20 FF F7 58 FE 2A 49 09 88 49 1E C1 F3 0F 20 ... -- CPU_WriteMem(1024 bytes @ 0x20000164)  returns 0x400 (0015ms, 2144ms total)
T0E54 002:809 JLINK_WriteReg(R0, 0x08001000)  returns 0x00 (0001ms, 2159ms total)
T0E54 002:810 JLINK_WriteReg(R1, 0x00000400)  returns 0x00 (0001ms, 2160ms total)
T0E54 002:811 JLINK_WriteReg(R2, 0x20000164)  returns 0x00 (0001ms, 2161ms total)
T0E54 002:812 JLINK_WriteReg(R3, 0x00000000)  returns 0x00 (0001ms, 2162ms total)
T0E54 002:814 JLINK_WriteReg(R4, 0x00000000)  returns 0x00 (0001ms, 2164ms total)
T0E54 002:815 JLINK_WriteReg(R5, 0x00000000)  returns 0x00 (0001ms, 2165ms total)
T0E54 002:816 JLINK_WriteReg(R6, 0x00000000)  returns 0x00 (0001ms, 2166ms total)
T0E54 002:817 JLINK_WriteReg(R7, 0x00000000)  returns 0x00 (0001ms, 2167ms total)
T0E54 002:819 JLINK_WriteReg(R8, 0x00000000)  returns 0x00 (0000ms, 2169ms total)
T0E54 002:820 JLINK_WriteReg(R9, 0x20000160)  returns 0x00 (0004ms, 2170ms total)
T0E54 002:824 JLINK_WriteReg(R10, 0x00000000)  returns 0x00 (0001ms, 2174ms total)
T0E54 002:825 JLINK_WriteReg(R11, 0x00000000)  returns 0x00 (0001ms, 2175ms total)
T0E54 002:827 JLINK_WriteReg(R12, 0x00000000)  returns 0x00 (0001ms, 2177ms total)
T0E54 002:828 JLINK_WriteReg(R13, 0x20000800)  returns 0x00 (0001ms, 2178ms total)
T0E54 002:829 JLINK_WriteReg(R14, 0x20000001)  returns 0x00 (0001ms, 2179ms total)
T0E54 002:831 JLINK_WriteReg(R15, 0x200000F4)  returns 0x00 (0001ms, 2181ms total)
T0E54 002:833 JLINK_WriteReg(XPSR, 0x01000000)  returns 0x00 (0001ms, 2183ms total)
T0E54 002:834 JLINK_WriteReg(MSP, 0x20000800)  returns 0x00 (0001ms, 2184ms total)
T0E54 002:835 JLINK_WriteReg(PSP, 0x20000800)  returns 0x00 (0001ms, 2185ms total)
T0E54 002:836 JLINK_WriteReg(CFBP, 0x00000000)  returns 0x00 (0001ms, 2186ms total)
T0E54 002:837 JLINK_SetBPEx(Addr = 0x20000000, Type = 0xFFFFFFF2)  returns 0x00000009 (0001ms, 2187ms total)
T0E54 002:839 JLINK_Go() -- CPU_WriteMem(4 bytes @ 0xE0002008) -- CPU_WriteMem(4 bytes @ 0xE000200C) -- CPU_WriteMem(4 bytes @ 0xE0002010) -- CPU_WriteMem(4 bytes @ 0xE0002014) -- CPU_WriteMem(4 bytes @ 0xE0002018) -- CPU_WriteMem(4 bytes @ 0xE000201C) (0034ms, 2189ms total)
T0E54 002:873 JLINK_IsHalted()  returns FALSE (0005ms, 2223ms total)
T0E54 002:929 JLINK_IsHalted() -- CPU_ReadMem(2 bytes @ 0x20000000)  returns TRUE (0016ms, 2223ms total)
T0E54 002:945 JLINK_ReadReg(R15)  returns 0x20000000 (0001ms, 2223ms total)
T0E54 002:946 JLINK_ClrBPEx(BPHandle = 0x00000009)  returns 0x00 (0001ms, 2224ms total)
T0E54 002:947 JLINK_ReadReg(R0)  returns 0x00000000 (0001ms, 2225ms total)
T0E54 002:949 JLINK_WriteMem(0x20000164, 0x0400 Bytes, ...) -- Data:  80 88 00 06 00 0C 88 80 FF F7 58 FC 33 49 89 88 ... -- CPU_WriteMem(1024 bytes @ 0x20000164)  returns 0x400 (0014ms, 2226ms total)
T0E54 002:963 JLINK_WriteReg(R0, 0x08001400)  returns 0x00 (0001ms, 2240ms total)
T0E54 002:964 JLINK_WriteReg(R1, 0x00000400)  returns 0x00 (0001ms, 2241ms total)
T0E54 002:965 JLINK_WriteReg(R2, 0x20000164)  returns 0x00 (0001ms, 2242ms total)
T0E54 002:966 JLINK_WriteReg(R3, 0x00000000)  returns 0x00 (0001ms, 2243ms total)
T0E54 002:967 JLINK_WriteReg(R4, 0x00000000)  returns 0x00 (0001ms, 2244ms total)
T0E54 002:968 JLINK_WriteReg(R5, 0x00000000)  returns 0x00 (0001ms, 2245ms total)
T0E54 002:969 JLINK_WriteReg(R6, 0x00000000)  returns 0x00 (0001ms, 2246ms total)
T0E54 002:970 JLINK_WriteReg(R7, 0x00000000)  returns 0x00 (0001ms, 2247ms total)
T0E54 002:971 JLINK_WriteReg(R8, 0x00000000)  returns 0x00 (0001ms, 2248ms total)
T0E54 002:972 JLINK_WriteReg(R9, 0x20000160)  returns 0x00 (0001ms, 2249ms total)
T0E54 002:973 JLINK_WriteReg(R10, 0x00000000)  returns 0x00 (0001ms, 2250ms total)
T0E54 002:974 JLINK_WriteReg(R11, 0x00000000)  returns 0x00 (0001ms, 2251ms total)
T0E54 002:976 JLINK_WriteReg(R12, 0x00000000)  returns 0x00 (0001ms, 2253ms total)
T0E54 002:977 JLINK_WriteReg(R13, 0x20000800)  returns 0x00 (0001ms, 2254ms total)
T0E54 002:978 JLINK_WriteReg(R14, 0x20000001)  returns 0x00 (0001ms, 2255ms total)
T0E54 002:979 JLINK_WriteReg(R15, 0x200000F4)  returns 0x00 (0001ms, 2256ms total)
T0E54 002:980 JLINK_WriteReg(XPSR, 0x01000000)  returns 0x00 (0001ms, 2257ms total)
T0E54 002:981 JLINK_WriteReg(MSP, 0x20000800)  returns 0x00 (0001ms, 2258ms total)
T0E54 002:982 JLINK_WriteReg(PSP, 0x20000800)  returns 0x00 (0001ms, 2259ms total)
T0E54 002:983 JLINK_WriteReg(CFBP, 0x00000000)  returns 0x00 (0001ms, 2260ms total)
T0E54 002:984 JLINK_SetBPEx(Addr = 0x20000000, Type = 0xFFFFFFF2)  returns 0x0000000A (0001ms, 2261ms total)
T0E54 002:985 JLINK_Go() -- CPU_WriteMem(4 bytes @ 0xE0002008) -- CPU_WriteMem(4 bytes @ 0xE000200C) -- CPU_WriteMem(4 bytes @ 0xE0002010) -- CPU_WriteMem(4 bytes @ 0xE0002014) -- CPU_WriteMem(4 bytes @ 0xE0002018) -- CPU_WriteMem(4 bytes @ 0xE000201C) (0033ms, 2262ms total)
T0E54 003:019 JLINK_IsHalted()  returns FALSE (0006ms, 2296ms total)
T0E54 003:079 JLINK_IsHalted() -- CPU_ReadMem(2 bytes @ 0x20000000)  returns TRUE (0020ms, 2296ms total)
T0E54 003:099 JLINK_ReadReg(R15)  returns 0x20000000 (0002ms, 2296ms total)
T0E54 003:101 JLINK_ClrBPEx(BPHandle = 0x0000000A)  returns 0x00 (0002ms, 2298ms total)
T0E54 003:103 JLINK_ReadReg(R0)  returns 0x00000000 (0001ms, 2300ms total)
T0E54 003:105 JLINK_WriteMem(0x20000164, 0x0400 Bytes, ...) -- Data:  78 20 02 F0 B6 FA 29 20 FF F7 52 FA D9 E1 A7 48 ... -- CPU_WriteMem(1024 bytes @ 0x20000164)  returns 0x400 (0012ms, 2301ms total)
T0E54 003:118 JLINK_WriteReg(R0, 0x08001800)  returns 0x00 (0001ms, 2314ms total)
T0E54 003:119 JLINK_WriteReg(R1, 0x00000400)  returns 0x00 (0001ms, 2315ms total)
T0E54 003:121 JLINK_WriteReg(R2, 0x20000164)  returns 0x00 (0001ms, 2317ms total)
T0E54 003:122 JLINK_WriteReg(R3, 0x00000000)  returns 0x00 (0001ms, 2318ms total)
T0E54 003:124 JLINK_WriteReg(R4, 0x00000000)  returns 0x00 (0001ms, 2320ms total)
T0E54 003:125 JLINK_WriteReg(R5, 0x00000000)  returns 0x00 (0002ms, 2321ms total)
T0E54 003:127 JLINK_WriteReg(R6, 0x00000000)  returns 0x00 (0002ms, 2323ms total)
T0E54 003:130 JLINK_WriteReg(R7, 0x00000000)  returns 0x00 (0002ms, 2326ms total)
T0E54 003:132 JLINK_WriteReg(R8, 0x00000000)  returns 0x00 (0011ms, 2328ms total)
T0E54 003:144 JLINK_WriteReg(R9, 0x20000160)  returns 0x00 (0001ms, 2340ms total)
T0E54 003:146 JLINK_WriteReg(R10, 0x00000000)  returns 0x00 (0001ms, 2342ms total)
T0E54 003:147 JLINK_WriteReg(R11, 0x00000000)  returns 0x00 (0021ms, 2343ms total)
T0E54 003:169 JLINK_WriteReg(R12, 0x00000000)  returns 0x00 (0001ms, 2365ms total)
T0E54 003:170 JLINK_WriteReg(R13, 0x20000800)  returns 0x00 (0000ms, 2366ms total)
T0E54 003:171 JLINK_WriteReg(R14, 0x20000001)  returns 0x00 (0000ms, 2367ms total)
T0E54 003:172 JLINK_WriteReg(R15, 0x200000F4)  returns 0x00 (0000ms, 2368ms total)
T0E54 003:173 JLINK_WriteReg(XPSR, 0x01000000)  returns 0x00 (0000ms, 2369ms total)
T0E54 003:174 JLINK_WriteReg(MSP, 0x20000800)  returns 0x00 (0001ms, 2370ms total)
T0E54 003:175 JLINK_WriteReg(PSP, 0x20000800)  returns 0x00 (0001ms, 2371ms total)
T0E54 003:176 JLINK_WriteReg(CFBP, 0x00000000)  returns 0x00 (0001ms, 2372ms total)
T0E54 003:177 JLINK_SetBPEx(Addr = 0x20000000, Type = 0xFFFFFFF2)  returns 0x0000000B (0001ms, 2373ms total)
T0E54 003:178 JLINK_Go() -- CPU_WriteMem(4 bytes @ 0xE0002008) -- CPU_WriteMem(4 bytes @ 0xE000200C) -- CPU_WriteMem(4 bytes @ 0xE0002010) -- CPU_WriteMem(4 bytes @ 0xE0002014) -- CPU_WriteMem(4 bytes @ 0xE0002018) -- CPU_WriteMem(4 bytes @ 0xE000201C) (0033ms, 2374ms total)
T0E54 003:211 JLINK_IsHalted()  returns FALSE (0005ms, 2407ms total)
T0E54 003:267 JLINK_IsHalted() -- CPU_ReadMem(2 bytes @ 0x20000000)  returns TRUE (0013ms, 2407ms total)
T0E54 003:280 JLINK_ReadReg(R15)  returns 0x20000000 (0001ms, 2407ms total)
T0E54 003:281 JLINK_ClrBPEx(BPHandle = 0x0000000B)  returns 0x00 (0001ms, 2408ms total)
T0E54 003:282 JLINK_ReadReg(R0)  returns 0x00000000 (0001ms, 2409ms total)
T0E54 003:284 JLINK_WriteMem(0x20000164, 0x0400 Bytes, ...) -- Data:  08 20 FF F7 5E F8 00 21 09 20 FF F7 5A F8 00 21 ... -- CPU_WriteMem(1024 bytes @ 0x20000164)  returns 0x400 (0010ms, 2410ms total)
T0E54 003:294 JLINK_WriteReg(R0, 0x08001C00)  returns 0x00 (0005ms, 2420ms total)
T0E54 003:300 JLINK_WriteReg(R1, 0x00000400)  returns 0x00 (0001ms, 2426ms total)
T0E54 003:301 JLINK_WriteReg(R2, 0x20000164)  returns 0x00 (0001ms, 2427ms total)
T0E54 003:302 JLINK_WriteReg(R3, 0x00000000)  returns 0x00 (0001ms, 2428ms total)
T0E54 003:303 JLINK_WriteReg(R4, 0x00000000)  returns 0x00 (0001ms, 2429ms total)
T0E54 003:304 JLINK_WriteReg(R5, 0x00000000)  returns 0x00 (0001ms, 2430ms total)
T0E54 003:305 JLINK_WriteReg(R6, 0x00000000)  returns 0x00 (0001ms, 2431ms total)
T0E54 003:306 JLINK_WriteReg(R7, 0x00000000)  returns 0x00 (0002ms, 2432ms total)
T0E54 003:309 JLINK_WriteReg(R8, 0x00000000)  returns 0x00 (0000ms, 2435ms total)
T0E54 003:310 JLINK_WriteReg(R9, 0x20000160)  returns 0x00 (0001ms, 2436ms total)
T0E54 003:311 JLINK_WriteReg(R10, 0x00000000)  returns 0x00 (0001ms, 2437ms total)
T0E54 003:312 JLINK_WriteReg(R11, 0x00000000)  returns 0x00 (0001ms, 2438ms total)
T0E54 003:314 JLINK_WriteReg(R12, 0x00000000)  returns 0x00 (0001ms, 2440ms total)
T0E54 003:315 JLINK_WriteReg(R13, 0x20000800)  returns 0x00 (0002ms, 2441ms total)
T0E54 003:317 JLINK_WriteReg(R14, 0x20000001)  returns 0x00 (0001ms, 2443ms total)
T0E54 003:318 JLINK_WriteReg(R15, 0x200000F4)  returns 0x00 (0004ms, 2444ms total)
T0E54 003:322 JLINK_WriteReg(XPSR, 0x01000000)  returns 0x00 (0001ms, 2448ms total)
T0E54 003:323 JLINK_WriteReg(MSP, 0x20000800)  returns 0x00 (0001ms, 2449ms total)
T0E54 003:324 JLINK_WriteReg(PSP, 0x20000800)  returns 0x00 (0001ms, 2450ms total)
T0E54 003:325 JLINK_WriteReg(CFBP, 0x00000000)  returns 0x00 (0001ms, 2451ms total)
T0E54 003:326 JLINK_SetBPEx(Addr = 0x20000000, Type = 0xFFFFFFF2)  returns 0x0000000C (0001ms, 2452ms total)
T0E54 003:327 JLINK_Go() -- CPU_WriteMem(4 bytes @ 0xE0002008) -- CPU_WriteMem(4 bytes @ 0xE000200C) -- CPU_WriteMem(4 bytes @ 0xE0002010) -- CPU_WriteMem(4 bytes @ 0xE0002014) -- CPU_WriteMem(4 bytes @ 0xE0002018) -- CPU_WriteMem(4 bytes @ 0xE000201C) (0033ms, 2453ms total)
T0E54 003:361 JLINK_IsHalted()  returns FALSE (0004ms, 2487ms total)
T0E54 003:416 JLINK_IsHalted() -- CPU_ReadMem(2 bytes @ 0x20000000)  returns TRUE (0016ms, 2487ms total)
T0E54 003:432 JLINK_ReadReg(R15)  returns 0x20000000 (0001ms, 2487ms total)
T0E54 003:433 JLINK_ClrBPEx(BPHandle = 0x0000000C)  returns 0x00 (0001ms, 2488ms total)
T0E54 003:434 JLINK_ReadReg(R0)  returns 0x00000000 (0001ms, 2489ms total)
T0E54 003:436 JLINK_WriteMem(0x20000164, 0x0400 Bytes, ...) -- Data:  00 21 82 20 00 E0 27 E0 FE F7 5B FE 00 21 83 20 ... -- CPU_WriteMem(1024 bytes @ 0x20000164)  returns 0x400 (0011ms, 2490ms total)
T0E54 003:447 JLINK_WriteReg(R0, 0x08002000)  returns 0x00 (0001ms, 2501ms total)
T0E54 003:448 JLINK_WriteReg(R1, 0x00000400)  returns 0x00 (0001ms, 2502ms total)
T0E54 003:449 JLINK_WriteReg(R2, 0x20000164)  returns 0x00 (0001ms, 2503ms total)
T0E54 003:450 JLINK_WriteReg(R3, 0x00000000)  returns 0x00 (0002ms, 2504ms total)
T0E54 003:452 JLINK_WriteReg(R4, 0x00000000)  returns 0x00 (0001ms, 2506ms total)
T0E54 003:453 JLINK_WriteReg(R5, 0x00000000)  returns 0x00 (0001ms, 2507ms total)
T0E54 003:454 JLINK_WriteReg(R6, 0x00000000)  returns 0x00 (0001ms, 2508ms total)
T0E54 003:455 JLINK_WriteReg(R7, 0x00000000)  returns 0x00 (0001ms, 2509ms total)
T0E54 003:456 JLINK_WriteReg(R8, 0x00000000)  returns 0x00 (0001ms, 2510ms total)
T0E54 003:457 JLINK_WriteReg(R9, 0x20000160)  returns 0x00 (0001ms, 2511ms total)
T0E54 003:458 JLINK_WriteReg(R10, 0x00000000)  returns 0x00 (0001ms, 2512ms total)
T0E54 003:459 JLINK_WriteReg(R11, 0x00000000)  returns 0x00 (0001ms, 2513ms total)
T0E54 003:461 JLINK_WriteReg(R12, 0x00000000)  returns 0x00 (0001ms, 2515ms total)
T0E54 003:462 JLINK_WriteReg(R13, 0x20000800)  returns 0x00 (0005ms, 2516ms total)
T0E54 003:467 JLINK_WriteReg(R14, 0x20000001)  returns 0x00 (0001ms, 2521ms total)
T0E54 003:468 JLINK_WriteReg(R15, 0x200000F4)  returns 0x00 (0001ms, 2522ms total)
T0E54 003:469 JLINK_WriteReg(XPSR, 0x01000000)  returns 0x00 (0001ms, 2523ms total)
T0E54 003:470 JLINK_WriteReg(MSP, 0x20000800)  returns 0x00 (0001ms, 2524ms total)
T0E54 003:471 JLINK_WriteReg(PSP, 0x20000800)  returns 0x00 (0002ms, 2525ms total)
T0E54 003:473 JLINK_WriteReg(CFBP, 0x00000000)  returns 0x00 (0001ms, 2527ms total)
T0E54 003:474 JLINK_SetBPEx(Addr = 0x20000000, Type = 0xFFFFFFF2)  returns 0x0000000D (0001ms, 2528ms total)
T0E54 003:475 JLINK_Go() -- CPU_WriteMem(4 bytes @ 0xE0002008) -- CPU_WriteMem(4 bytes @ 0xE000200C) -- CPU_WriteMem(4 bytes @ 0xE0002010) -- CPU_WriteMem(4 bytes @ 0xE0002014) -- CPU_WriteMem(4 bytes @ 0xE0002018) -- CPU_WriteMem(4 bytes @ 0xE000201C) (0034ms, 2529ms total)
T0E54 003:510 JLINK_IsHalted()  returns FALSE (0004ms, 2564ms total)
T0E54 003:566 JLINK_IsHalted() -- CPU_ReadMem(2 bytes @ 0x20000000)  returns TRUE (0031ms, 2564ms total)
T0E54 003:598 JLINK_ReadReg(R15)  returns 0x20000000 (0001ms, 2564ms total)
T0E54 003:599 JLINK_ClrBPEx(BPHandle = 0x0000000D)  returns 0x00 (0002ms, 2565ms total)
T0E54 003:601 JLINK_ReadReg(R0)  returns 0x00000000 (0001ms, 2567ms total)
T0E54 003:604 JLINK_WriteMem(0x20000164, 0x0400 Bytes, ...) -- Data:  50 20 FE F7 5E FC EF 21 51 20 FE F7 5A FC 00 21 ... -- CPU_WriteMem(1024 bytes @ 0x20000164)  returns 0x400 (0011ms, 2569ms total)
T0E54 003:616 JLINK_WriteReg(R0, 0x08002400)  returns 0x00 (0001ms, 2581ms total)
T0E54 003:617 JLINK_WriteReg(R1, 0x00000400)  returns 0x00 (0001ms, 2582ms total)
T0E54 003:619 JLINK_WriteReg(R2, 0x20000164)  returns 0x00 (0001ms, 2584ms total)
T0E54 003:620 JLINK_WriteReg(R3, 0x00000000)  returns 0x00 (0002ms, 2585ms total)
T0E54 003:622 JLINK_WriteReg(R4, 0x00000000)  returns 0x00 (0002ms, 2587ms total)
T0E54 003:624 JLINK_WriteReg(R5, 0x00000000)  returns 0x00 (0001ms, 2589ms total)
T0E54 003:626 JLINK_WriteReg(R6, 0x00000000)  returns 0x00 (0002ms, 2591ms total)
T0E54 003:628 JLINK_WriteReg(R7, 0x00000000)  returns 0x00 (0002ms, 2593ms total)
T0E54 003:630 JLINK_WriteReg(R8, 0x00000000)  returns 0x00 (0001ms, 2595ms total)
T0E54 003:631 JLINK_WriteReg(R9, 0x20000160)  returns 0x00 (0011ms, 2596ms total)
T0E54 003:642 JLINK_WriteReg(R10, 0x00000000)  returns 0x00 (0001ms, 2607ms total)
T0E54 003:643 JLINK_WriteReg(R11, 0x00000000)  returns 0x00 (0001ms, 2608ms total)
T0E54 003:645 JLINK_WriteReg(R12, 0x00000000)  returns 0x00 (0000ms, 2610ms total)
T0E54 003:646 JLINK_WriteReg(R13, 0x20000800)  returns 0x00 (0001ms, 2611ms total)
T0E54 003:647 JLINK_WriteReg(R14, 0x20000001)  returns 0x00 (0001ms, 2612ms total)
T0E54 003:648 JLINK_WriteReg(R15, 0x200000F4)  returns 0x00 (0001ms, 2613ms total)
T0E54 003:649 JLINK_WriteReg(XPSR, 0x01000000)  returns 0x00 (0001ms, 2614ms total)
T0E54 003:650 JLINK_WriteReg(MSP, 0x20000800)  returns 0x00 (0001ms, 2615ms total)
T0E54 003:651 JLINK_WriteReg(PSP, 0x20000800)  returns 0x00 (0001ms, 2616ms total)
T0E54 003:652 JLINK_WriteReg(CFBP, 0x00000000)  returns 0x00 (0001ms, 2617ms total)
T0E54 003:653 JLINK_SetBPEx(Addr = 0x20000000, Type = 0xFFFFFFF2)  returns 0x0000000E (0001ms, 2618ms total)
T0E54 003:654 JLINK_Go() -- CPU_WriteMem(4 bytes @ 0xE0002008) -- CPU_WriteMem(4 bytes @ 0xE000200C) -- CPU_WriteMem(4 bytes @ 0xE0002010) -- CPU_WriteMem(4 bytes @ 0xE0002014) -- CPU_WriteMem(4 bytes @ 0xE0002018) -- CPU_WriteMem(4 bytes @ 0xE000201C) (0035ms, 2619ms total)
T0E54 003:690 JLINK_IsHalted()  returns FALSE (0006ms, 2655ms total)
T0E54 003:747 JLINK_IsHalted() -- CPU_ReadMem(2 bytes @ 0x20000000)  returns TRUE (0015ms, 2655ms total)
T0E54 003:762 JLINK_ReadReg(R15)  returns 0x20000000 (0001ms, 2655ms total)
T0E54 003:764 JLINK_ClrBPEx(BPHandle = 0x0000000E)  returns 0x00 (0000ms, 2657ms total)
T0E54 003:765 JLINK_ReadReg(R0)  returns 0x00000000 (0000ms, 2658ms total)
T0E54 003:766 JLINK_WriteMem(0x20000164, 0x0400 Bytes, ...) -- Data:  60 FA 40 F6 39 21 13 20 FE F7 5B FA 0A 20 01 F0 ... -- CPU_WriteMem(1024 bytes @ 0x20000164)  returns 0x400 (0012ms, 2658ms total)
T0E54 003:778 JLINK_WriteReg(R0, 0x08002800)  returns 0x00 (0001ms, 2670ms total)
T0E54 003:779 JLINK_WriteReg(R1, 0x00000400)  returns 0x00 (0000ms, 2671ms total)
T0E54 003:779 JLINK_WriteReg(R2, 0x20000164)  returns 0x00 (0001ms, 2671ms total)
T0E54 003:780 JLINK_WriteReg(R3, 0x00000000)  returns 0x00 (0001ms, 2672ms total)
T0E54 003:781 JLINK_WriteReg(R4, 0x00000000)  returns 0x00 (0001ms, 2673ms total)
T0E54 003:783 JLINK_WriteReg(R5, 0x00000000)  returns 0x00 (0001ms, 2675ms total)
T0E54 003:784 JLINK_WriteReg(R6, 0x00000000)  returns 0x00 (0001ms, 2676ms total)
T0E54 003:785 JLINK_WriteReg(R7, 0x00000000)  returns 0x00 (0001ms, 2677ms total)
T0E54 003:786 JLINK_WriteReg(R8, 0x00000000)  returns 0x00 (0001ms, 2678ms total)
T0E54 003:787 JLINK_WriteReg(R9, 0x20000160)  returns 0x00 (0005ms, 2679ms total)
T0E54 003:792 JLINK_WriteReg(R10, 0x00000000)  returns 0x00 (0001ms, 2684ms total)
T0E54 003:793 JLINK_WriteReg(R11, 0x00000000)  returns 0x00 (0001ms, 2685ms total)
T0E54 003:794 JLINK_WriteReg(R12, 0x00000000)  returns 0x00 (0001ms, 2686ms total)
T0E54 003:796 JLINK_WriteReg(R13, 0x20000800)  returns 0x00 (0001ms, 2688ms total)
T0E54 003:797 JLINK_WriteReg(R14, 0x20000001)  returns 0x00 (0001ms, 2689ms total)
T0E54 003:798 JLINK_WriteReg(R15, 0x200000F4)  returns 0x00 (0001ms, 2690ms total)
T0E54 003:799 JLINK_WriteReg(XPSR, 0x01000000)  returns 0x00 (0001ms, 2691ms total)
T0E54 003:800 JLINK_WriteReg(MSP, 0x20000800)  returns 0x00 (0001ms, 2692ms total)
T0E54 003:801 JLINK_WriteReg(PSP, 0x20000800)  returns 0x00 (0001ms, 2693ms total)
T0E54 003:802 JLINK_WriteReg(CFBP, 0x00000000)  returns 0x00 (0001ms, 2694ms total)
T0E54 003:803 JLINK_SetBPEx(Addr = 0x20000000, Type = 0xFFFFFFF2)  returns 0x0000000F (0001ms, 2695ms total)
T0E54 003:805 JLINK_Go() -- CPU_WriteMem(4 bytes @ 0xE0002008) -- CPU_WriteMem(4 bytes @ 0xE000200C) -- CPU_WriteMem(4 bytes @ 0xE0002010) -- CPU_WriteMem(4 bytes @ 0xE0002014) -- CPU_WriteMem(4 bytes @ 0xE0002018) -- CPU_WriteMem(4 bytes @ 0xE000201C) (0034ms, 2697ms total)
T0E54 003:839 JLINK_IsHalted()  returns FALSE (0005ms, 2731ms total)
T0E54 003:896 JLINK_IsHalted() -- CPU_ReadMem(2 bytes @ 0x20000000)  returns TRUE (0028ms, 2731ms total)
T0E54 003:924 JLINK_ReadReg(R15)  returns 0x20000000 (0002ms, 2731ms total)
T0E54 003:926 JLINK_ClrBPEx(BPHandle = 0x0000000F)  returns 0x00 (0002ms, 2733ms total)
T0E54 003:928 JLINK_ReadReg(R0)  returns 0x00000000 (0001ms, 2735ms total)
T0E54 003:932 JLINK_WriteMem(0x20000164, 0x0400 Bytes, ...) -- Data:  03 98 28 44 03 90 02 98 30 44 02 90 03 98 A0 42 ... -- CPU_WriteMem(1024 bytes @ 0x20000164)  returns 0x400 (0013ms, 2738ms total)
T0E54 003:945 JLINK_WriteReg(R0, 0x08002C00)  returns 0x00 (0003ms, 2751ms total)
T0E54 003:949 JLINK_WriteReg(R1, 0x00000400)  returns 0x00 (0000ms, 2755ms total)
T0E54 003:950 JLINK_WriteReg(R2, 0x20000164)  returns 0x00 (0000ms, 2756ms total)
T0E54 003:951 JLINK_WriteReg(R3, 0x00000000)  returns 0x00 (0001ms, 2757ms total)
T0E54 003:952 JLINK_WriteReg(R4, 0x00000000)  returns 0x00 (0001ms, 2758ms total)
T0E54 003:953 JLINK_WriteReg(R5, 0x00000000)  returns 0x00 (0002ms, 2759ms total)
T0E54 003:955 JLINK_WriteReg(R6, 0x00000000)  returns 0x00 (0001ms, 2761ms total)
T0E54 003:956 JLINK_WriteReg(R7, 0x00000000)  returns 0x00 (0001ms, 2762ms total)
T0E54 003:958 JLINK_WriteReg(R8, 0x00000000)  returns 0x00 (0000ms, 2764ms total)
T0E54 003:959 JLINK_WriteReg(R9, 0x20000160)  returns 0x00 (0000ms, 2764ms total)
T0E54 003:960 JLINK_WriteReg(R10, 0x00000000)  returns 0x00 (0000ms, 2765ms total)
T0E54 003:960 JLINK_WriteReg(R11, 0x00000000)  returns 0x00 (0006ms, 2765ms total)
T0E54 003:967 JLINK_WriteReg(R12, 0x00000000)  returns 0x00 (0000ms, 2772ms total)
T0E54 003:968 JLINK_WriteReg(R13, 0x20000800)  returns 0x00 (0000ms, 2773ms total)
T0E54 003:969 JLINK_WriteReg(R14, 0x20000001)  returns 0x00 (0002ms, 2774ms total)
T0E54 003:971 JLINK_WriteReg(R15, 0x200000F4)  returns 0x00 (0001ms, 2776ms total)
T0E54 003:972 JLINK_WriteReg(XPSR, 0x01000000)  returns 0x00 (0001ms, 2777ms total)
T0E54 003:974 JLINK_WriteReg(MSP, 0x20000800)  returns 0x00 (0001ms, 2779ms total)
T0E54 003:975 JLINK_WriteReg(PSP, 0x20000800)  returns 0x00 (0001ms, 2780ms total)
T0E54 003:976 JLINK_WriteReg(CFBP, 0x00000000)  returns 0x00 (0001ms, 2781ms total)
T0E54 003:977 JLINK_SetBPEx(Addr = 0x20000000, Type = 0xFFFFFFF2)  returns 0x00000010 (0002ms, 2782ms total)
T0E54 003:979 JLINK_Go() -- CPU_WriteMem(4 bytes @ 0xE0002008) -- CPU_WriteMem(4 bytes @ 0xE000200C) -- CPU_WriteMem(4 bytes @ 0xE0002010) -- CPU_WriteMem(4 bytes @ 0xE0002014) -- CPU_WriteMem(4 bytes @ 0xE0002018) -- CPU_WriteMem(4 bytes @ 0xE000201C) (0036ms, 2784ms total)
T0E54 004:016 JLINK_IsHalted()  returns FALSE (0005ms, 2821ms total)
T0E54 004:075 JLINK_IsHalted() -- CPU_ReadMem(2 bytes @ 0x20000000)  returns TRUE (0021ms, 2821ms total)
T0E54 004:096 JLINK_ReadReg(R15)  returns 0x20000000 (0002ms, 2821ms total)
T0E54 004:098 JLINK_ClrBPEx(BPHandle = 0x00000010)  returns 0x00 (0002ms, 2823ms total)
T0E54 004:100 JLINK_ReadReg(R0)  returns 0x00000000 (0001ms, 2825ms total)
T0E54 004:103 JLINK_WriteMem(0x20000164, 0x0400 Bytes, ...) -- Data:  99 46 DD E9 09 67 04 F0 FF 0A 08 EB 04 00 1F FA ... -- CPU_WriteMem(1024 bytes @ 0x20000164)  returns 0x400 (0012ms, 2826ms total)
T0E54 004:115 JLINK_WriteReg(R0, 0x08003000)  returns 0x00 (0002ms, 2838ms total)
T0E54 004:117 JLINK_WriteReg(R1, 0x00000400)  returns 0x00 (0001ms, 2840ms total)
T0E54 004:118 JLINK_WriteReg(R2, 0x20000164)  returns 0x00 (0001ms, 2841ms total)
T0E54 004:119 JLINK_WriteReg(R3, 0x00000000)  returns 0x00 (0004ms, 2842ms total)
T0E54 004:124 JLINK_WriteReg(R4, 0x00000000)  returns 0x00 (0001ms, 2847ms total)
T0E54 004:125 JLINK_WriteReg(R5, 0x00000000)  returns 0x00 (0001ms, 2848ms total)
T0E54 004:126 JLINK_WriteReg(R6, 0x00000000)  returns 0x00 (0001ms, 2849ms total)
T0E54 004:127 JLINK_WriteReg(R7, 0x00000000)  returns 0x00 (0001ms, 2850ms total)
T0E54 004:128 JLINK_WriteReg(R8, 0x00000000)  returns 0x00 (0001ms, 2851ms total)
T0E54 004:129 JLINK_WriteReg(R9, 0x20000160)  returns 0x00 (0003ms, 2852ms total)
T0E54 004:133 JLINK_WriteReg(R10, 0x00000000)  returns 0x00 (0000ms, 2856ms total)
T0E54 004:134 JLINK_WriteReg(R11, 0x00000000)  returns 0x00 (0000ms, 2857ms total)
T0E54 004:134 JLINK_WriteReg(R12, 0x00000000)  returns 0x00 (0002ms, 2857ms total)
T0E54 004:136 JLINK_WriteReg(R13, 0x20000800)  returns 0x00 (0001ms, 2859ms total)
T0E54 004:137 JLINK_WriteReg(R14, 0x20000001)  returns 0x00 (0001ms, 2860ms total)
T0E54 004:138 JLINK_WriteReg(R15, 0x200000F4)  returns 0x00 (0002ms, 2861ms total)
T0E54 004:140 JLINK_WriteReg(XPSR, 0x01000000)  returns 0x00 (0001ms, 2863ms total)
T0E54 004:141 JLINK_WriteReg(MSP, 0x20000800)  returns 0x00 (0001ms, 2864ms total)
T0E54 004:142 JLINK_WriteReg(PSP, 0x20000800)  returns 0x00 (0001ms, 2865ms total)
T0E54 004:143 JLINK_WriteReg(CFBP, 0x00000000)  returns 0x00 (0001ms, 2866ms total)
T0E54 004:144 JLINK_SetBPEx(Addr = 0x20000000, Type = 0xFFFFFFF2)  returns 0x00000011 (0001ms, 2867ms total)
T0E54 004:146 JLINK_Go() -- CPU_WriteMem(4 bytes @ 0xE0002008) -- CPU_WriteMem(4 bytes @ 0xE000200C) -- CPU_WriteMem(4 bytes @ 0xE0002010) -- CPU_WriteMem(4 bytes @ 0xE0002014) -- CPU_WriteMem(4 bytes @ 0xE0002018) -- CPU_WriteMem(4 bytes @ 0xE000201C) (0033ms, 2869ms total)
T0E54 004:179 JLINK_IsHalted()  returns FALSE (0006ms, 2902ms total)
T0E54 004:236 JLINK_IsHalted() -- CPU_ReadMem(2 bytes @ 0x20000000)  returns TRUE (0012ms, 2902ms total)
T0E54 004:248 JLINK_ReadReg(R15)  returns 0x20000000 (0001ms, 2902ms total)
T0E54 004:249 JLINK_ClrBPEx(BPHandle = 0x00000011)  returns 0x00 (0002ms, 2903ms total)
T0E54 004:251 JLINK_ReadReg(R0)  returns 0x00000000 (0001ms, 2905ms total)
